!Keysight Technologies,N5244B,MY57181157,A.18.40.03
!Date: Wednesday, September 17, 2025 09:51:07
!Correction: S11(C  3-Port  ) 
!S12(C  3-Port  ) 
!S13(C  3-Port  ) 
!S21(C  3-Port  ) 
!S22(C  3-Port  ) 
!S23(C  3-Port  ) 
!S31(C  3-Port  ) 
!S32(C  3-Port  ) 
!S33(C  3-Port  ) 
!S3P File: Measurements: <S11,S12,S13>,
!<S21,S22,S23>,
!<S31,S32,S33>:
# Hz S  RI   R 50
10000000 0.48776442 -0.50252974 0.073990278 -0.043346331 0.00031393627 -0.0023188931
-5.0179138 -5.9540253 0.24462663 -0.58931011 0.013249176 -0.032811645
-0.82740498 20.175406 -3.4154518 -1.0086706 -0.13103464 -0.79267991
11000000 0.43593699 -0.52199608 0.069454409 -0.044903286 0.00065823481 -0.0026809275
-5.5992188 -6.0750437 0.19088595 -0.60680503 0.0099198259 -0.031606585
1.213171 22.50177 -3.5340507 -0.77735102 -0.19565535 -0.78136057
12000000 0.39324626 -0.53333676 0.064649194 -0.04475569 -0.00022912631 -0.0013653489
-6.2485185 -6.0913887 0.13447976 -0.60960293 0.0064896178 -0.031210469
3.7044411 24.586575 -3.6040742 -0.48276448 -0.26246372 -0.76639903
13000000 0.34777844 -0.5387547 0.063129745 -0.044804186 0.00043359504 -0.0022256884
-6.7904296 -6.0266852 0.086116225 -0.60572535 0.0056093121 -0.027363934
5.6605072 25.780575 -3.5711439 -0.38142598 -0.29857752 -0.74347126
14000000 0.32005823 -0.53778815 0.059336267 -0.044035587 0.00076872855 -0.0019948711
-7.1948414 -6.0445013 0.052817345 -0.60001087 0.0049336161 -0.027713068
8.0109844 26.69326 -3.572238 -0.18832529 -0.35037398 -0.72598302
15000000 0.27957782 -0.53379714 0.05728304 -0.043591481 0.00055007555 -0.0026571914
-7.6977334 -5.8866405 0.013015956 -0.5909971 0.0017903969 -0.025551304
10.40233 27.556271 -3.5392973 -0.070391774 -0.39166096 -0.69837302
16000000 0.23960558 -0.52147263 0.052920908 -0.043205094 -0.00015305827 -0.0014539791
-8.0332298 -5.6956549 -0.032063127 -0.57654846 0.00044703856 -0.023822829
13.220106 28.147196 -3.48857 0.13316226 -0.43521208 -0.6836226
17000000 0.21408173 -0.52475911 0.050693035 -0.043530002 -0.00065205968 -0.001920931
-8.474453 -5.6856966 -0.059513092 -0.5809319 -0.0010678153 -0.02320566
14.928342 28.396837 -3.4538243 0.25973797 -0.46506685 -0.65215957
18000000 0.18452151 -0.52554953 0.048705474 -0.042171389 0.00055816065 -0.0014704805
-8.8245077 -5.4643259 -0.090169668 -0.56720775 -0.0024110554 -0.02167879
17.215977 28.704132 -3.3915157 0.36965036 -0.4968279 -0.63128763
19000000 0.16539288 -0.50752676 0.046570431 -0.040870916 -0.0009672775 -0.0012080742
-9.0600452 -5.2928581 -0.11632954 -0.54629034 -0.0039862921 -0.018801317
19.310766 27.981125 -3.3012435 0.44468307 -0.52206826 -0.60238898
20000000 0.145703 -0.50280005 0.044916928 -0.040752336 -0.00024451409 -0.00092501513
-9.3138199 -5.218792 -0.13767302 -0.53746212 -0.0034483392 -0.018434377
20.95376 27.840866 -3.2509456 0.50905609 -0.54090971 -0.58604801
21000000 0.1154989 -0.50321919 0.042284735 -0.040962227 -0.00025008066 -0.00049163401
-9.7416887 -4.9944167 -0.16860536 -0.53911281 -0.0040343022 -0.017968122
23.058186 28.027035 -3.2184892 0.61503786 -0.56170493 -0.57339662
22000000 0.10835341 -0.49124029 0.042364486 -0.038318962 -0.00028054955 -0.00038122197
-9.8846655 -4.8081884 -0.18311276 -0.52400607 -0.0061619487 -0.016217874
24.568047 27.215412 -3.1589048 0.65682304 -0.58284867 -0.54700834
23000000 0.094059706 -0.47617117 0.039170176 -0.037467092 -0.00087026972 -0.00094420533
-9.9794083 -4.6481934 -0.20397133 -0.50606 -0.008696775 -0.016143691
26.076725 26.954506 -3.0916772 0.68871856 -0.59776855 -0.53136855
24000000 0.07904619 -0.4790954 0.038014226 -0.036860406 -0.00082834804 -0.00015595598
-10.235223 -4.5227718 -0.22328034 -0.49698639 -0.010327775 -0.014059879
27.07003 26.364132 -3.0195634 0.72466671 -0.59804624 -0.51733249
25000000 0.062775232 -0.47208861 0.037517168 -0.036166772 -0.00069014437 -0.0013563354
-10.349793 -4.3817816 -0.24431515 -0.47883418 -0.010535197 -0.0098761981
28.78908 25.446266 -2.9417648 0.79725361 -0.62000513 -0.4914906
26000000 0.045668475 -0.47248399 0.036115382 -0.03445854 -0.0012768169 0.00049041724
-10.532804 -4.2497039 -0.25878388 -0.46557707 -0.010163014 -0.0061944267
29.822439 24.959763 -2.8794041 0.81180143 -0.62421983 -0.48654661
27000000 0.028719075 -0.46513361 0.035878636 -0.033570513 -0.00021613491 0.00064743479
-10.643724 -4.1397724 -0.26684132 -0.4511812 -0.0086781085 -0.0038035486
30.840786 23.934948 -2.8072851 0.81635702 -0.63497871 -0.4731639
28000000 0.017603677 -0.46255159 0.035147753 -0.033114266 -0.00026863138 0.00015967689
-10.827847 -4.0521793 -0.27634177 -0.43794513 -0.0090591293 -0.0016842175
31.760153 23.220463 -2.7358472 0.84573656 -0.6389991 -0.45921901
29000000 0.00069792382 -0.45646042 0.03536918 -0.032074686 -0.00011569131 0.00013120848
-10.892521 -3.9307642 -0.28032765 -0.41912326 -0.0073583401 0.0013276028
33.500156 22.998819 -2.7475231 0.86187893 -0.65591234 -0.45710805
30000000 -0.010418216 -0.4549742 0.035171427 -0.031274222 -0.00016351757 0.00025112589
-11.196656 -3.9075155 -0.27889001 -0.42303774 -0.0021353916 0.0027820885
33.630592 22.296997 -2.7025077 0.84673035 -0.6588549 -0.44569409
31000000 -0.034896113 -0.44731414 0.033540603 -0.031911869 0.00073693087 0.0006808613
-11.448511 -3.7223492 -0.29115289 -0.41887534 0.0007448211 0.002030971
34.694157 21.503454 -2.6412265 0.8825022 -0.66969341 -0.43472439
32000000 -0.044405516 -0.43835852 0.032279477 -0.030956119 -0.00029060399 0.00062153861
-11.576211 -3.5045376 -0.29991579 -0.4098464 0.0011265876 0.0010300572
35.536484 21.242735 -2.6234217 0.86730945 -0.67775941 -0.42869705
33000000 -0.050898761 -0.42366618 0.032318216 -0.030881681 0.00012600351 -0.00031302072
-11.667289 -3.3709955 -0.3015781 -0.40760398 0.0013109883 -0.001058099
35.973186 20.245749 -2.5986905 0.86172307 -0.68686384 -0.41694459
34000000 -0.063139126 -0.41886392 0.031921215 -0.030194806 0.0003396252 1.5333302e-05
-11.831453 -3.1379604 -0.31400427 -0.4004572 0.0017473537 -0.0017653916
36.729469 19.976095 -2.574007 0.8632592 -0.69146776 -0.41198143
35000000 -0.069483928 -0.40591085 0.030710544 -0.028892234 5.7192643e-05 1.0849031e-05
-11.865842 -3.0098259 -0.3209269 -0.39076868 0.0021801821 -0.0023153275
37.392445 19.025806 -2.5182672 0.86224413 -0.6954748 -0.39831051
36000000 -0.076996334 -0.40196383 0.030058257 -0.028995382 0.00018799923 2.5218185e-05
-12.033019 -2.8261147 -0.32789695 -0.38765368 0.0015182397 -0.003301308
38.074291 18.326511 -2.488009 0.88834357 -0.70641464 -0.38736302
37000000 -0.083117746 -0.39140791 0.029634934 -0.02829377 0.00019723481 0.00019278628
-12.055321 -2.6828175 -0.33733967 -0.37905043 0.0012782296 -0.0029500634
38.462536 17.672857 -2.4600036 0.86985332 -0.70789677 -0.3815451
38000000 -0.089739576 -0.38450769 0.029099543 -0.027634084 -0.00021768623 -0.0001280513
-12.132708 -2.511126 -0.34425235 -0.3746748 0.0013599222 -0.0024177411
39.27879 16.772017 -2.4282043 0.90145016 -0.71551275 -0.36894357
39000000 -0.09628585 -0.3770771 0.028330807 -0.027524697 -2.7811766e-06 -0.00036571804
-12.17223 -2.382014 -0.34808573 -0.36751977 4.0868763e-05 -0.0033027474
39.688831 16.441765 -2.4150112 0.8912605 -0.72093779 -0.36407417
40000000 -0.1028901 -0.37120324 0.028157113 -0.027089491 9.8607728e-05 6.131635e-05
-12.214745 -2.1588597 -0.35837373 -0.36267075 0.0013016101 -0.0031248939
39.833363 15.797857 -2.3758941 0.85918522 -0.72014296 -0.35628352
41000000 -0.10974619 -0.36517882 0.027162181 -0.02634608 -0.00052003132 -0.00038541364
-12.252264 -2.0317965 -0.36410221 -0.35676759 -2.9903254e-05 -0.0034793271
40.470779 15.045359 -2.3523171 0.86921811 -0.72102183 -0.35054788
42000000 -0.11169977 -0.36041206 0.027647587 -0.025746325 6.6888897e-06 -0.00044436549
-12.287413 -1.9406967 -0.36990324 -0.349608 -0.00098892173 -0.0028668088
40.968578 14.54372 -2.3410516 0.88903362 -0.7308901 -0.3454732
43000000 -0.11830489 -0.35719439 0.026842207 -0.025031678 -0.0004910581 -0.00032899468
-12.337187 -1.7505488 -0.37870252 -0.34237686 -0.0024068088 -0.001045245
41.654572 13.648546 -2.3130312 0.90643424 -0.73560154 -0.33315951
44000000 -0.11996873 -0.35259148 0.026851434 -0.024204317 -0.00029102265 2.1934378e-05
-12.313745 -1.7551975 -0.37654164 -0.33253667 -0.00100407 0.0010466863
42.134529 12.969529 -2.3099928 0.90362751 -0.74266052 -0.33306453
45000000 -0.12979847 -0.34799257 0.026338847 -0.024734622 0.00030687335 -0.00055554847
-12.387905 -1.6117477 -0.37952787 -0.32880327 0.00060388958 -0.00022536604
41.90461 12.360386 -2.2525139 0.87475866 -0.7366817 -0.32589316
46000000 -0.13646013 -0.34330243 0.026521845 -0.024198964 4.517581e-05 0.00036122324
-12.470831 -1.381597 -0.38719806 -0.32480124 0.00041775929 0.00015842721
42.28616 11.96808 -2.245573 0.88219219 -0.74031901 -0.31639433
47000000 -0.13142738 -0.33739236 0.026578793 -0.023705598 -0.00027734492 -0.00025199432
-12.514391 -1.3426871 -0.38604507 -0.32576495 0.00062813179 -0.0009786532
42.364571 11.333332 -2.2452908 0.87176621 -0.74385774 -0.31179959
48000000 -0.13420293 -0.33230126 0.025570408 -0.023216173 0.00040094057 0.00011937167
-12.48917 -1.219902 -0.39249521 -0.3153621 -0.0011740928 -0.00054994377
42.714581 10.573154 -2.2166028 0.88224965 -0.74784458 -0.30516937
49000000 -0.13732263 -0.33684596 0.025262207 -0.02224233 -3.0914322e-05 0.0011146573
-12.45257 -1.1385083 -0.39915466 -0.30845776 -0.002446942 0.0025608963
42.993416 10.293325 -2.2188771 0.8810966 -0.75127256 -0.30452013
50000000 -0.14672163 -0.33657101 0.025645878 -0.022203933 0.00021550615 0.0004232541
-12.568968 -1.1741962 -0.39336354 -0.30018091 0.0014792486 0.0059859133
42.962849 9.9848347 -2.1986532 0.85088313 -0.75246906 -0.30349123
51000000 -0.16102515 -0.32759547 0.02526046 -0.022293616 2.5828633e-05 0.00011160091
-12.639218 -0.93162203 -0.40009522 -0.30012098 0.0031888664 0.0036668638
43.571373 9.1295967 -2.1746297 0.86316717 -0.755907 -0.29786891
52000000 -0.15763922 -0.31899208 0.025291191 -0.021749176 0.00062806712 -0.0002397849
-12.733625 -0.88131809 -0.39759642 -0.29715869 0.0043189889 0.0017975634
43.663879 8.728363 -2.1727002 0.85886729 -0.75872481 -0.29098856
53000000 -0.16220187 -0.31447566 0.024710551 -0.021749116 0.00021806866 -0.00015351817
-12.77657 -0.66484642 -0.40218303 -0.29643384 0.0031954199 0.0012945737
43.946712 8.0106344 -2.143048 0.8659004 -0.76043952 -0.28315216
54000000 -0.16281223 -0.31101662 0.024463842 -0.021437522 0.00037673133 -0.00020268891
-12.794185 -0.58473301 -0.40594819 -0.29174614 0.0029338223 0.0015897504
44.165062 7.9016094 -2.1501982 0.85278583 -0.76103216 -0.28629512
55000000 -0.16443703 -0.30547917 0.02435559 -0.020559464 0.00049313268 -3.8467748e-05
-12.683006 -0.5218606 -0.40640819 -0.28475767 0.0029403267 0.00161365
44.447342 7.4511347 -2.1423378 0.8514275 -0.76667869 -0.28260988
56000000 -0.16813949 -0.30324677 0.024280362 -0.020779226 0.00045334938 0.00031485557
-12.733836 -0.3838551 -0.41398665 -0.28113315 0.0026536556 0.0022788648
44.093224 6.4830275 -2.1043906 0.84813428 -0.76714361 -0.27513492
57000000 -0.16921851 -0.30349234 0.024189457 -0.020354358 0.00066099927 0.00055654609
-12.807018 -0.29688644 -0.41252872 -0.28172979 0.002611795 0.0030526863
44.269096 5.9460192 -2.1063273 0.85007894 -0.76682001 -0.26955658
58000000 -0.17601056 -0.30346689 0.024134161 -0.020057444 -0.00012355197 0.00024044754
-12.812547 -0.16721725 -0.4160932 -0.27749601 0.0032269366 0.0032002954
44.734718 5.824851 -2.1056421 0.86153692 -0.77347267 -0.27137548
59000000 -0.17806546 -0.29356423 0.023997599 -0.01965341 0.000411571 0.00041799009
-12.726806 -0.17687786 -0.41384554 -0.27096984 0.0041079638 0.0032741155
44.702835 4.6778598 -2.0779421 0.84734023 -0.77309042 -0.26111138
60000000 -0.17792809 -0.28928828 0.023730153 -0.019777589 0.00017695951 -0.00011260437
-12.783401 -0.10978547 -0.4135372 -0.26678962 0.0045116991 0.0033874786
44.848854 4.8581982 -2.0857947 0.83112025 -0.77720201 -0.2634269
61000000 -0.18406793 -0.28921902 0.023346039 -0.019621521 -8.8561283e-06 -0.00012014605
-12.845482 -0.026217803 -0.41668281 -0.26783371 0.0059471368 0.0033243042
44.815815 3.8967996 -2.0567997 0.86685973 -0.77928746 -0.25469637
62000000 -0.18705463 -0.28564614 0.023338407 -0.019170688 0.00059315172 0.00029665447
-12.913529 0.16339803 -0.42144889 -0.26630479 0.0060674204 0.0035347035
44.989029 3.7781949 -2.0627587 0.84555155 -0.77802789 -0.26017982
63000000 -0.1894176 -0.27881947 0.023529885 -0.018938346 0.0004459226 9.4169023e-05
-12.833241 0.30178308 -0.42038897 -0.26074111 0.006450823 0.0027398835
44.996113 3.2625189 -2.0446956 0.82465404 -0.77757144 -0.25617635
64000000 -0.19137728 -0.2790108 0.023297284 -0.018862329 0.00052833819 -0.00010518458
-12.945001 0.3342762 -0.42129904 -0.25864094 0.006507453 0.0023997764
45.002632 2.7275844 -2.0307736 0.84804583 -0.78101015 -0.24731015
65000000 -0.19374223 -0.27544433 0.023355581 -0.01945276 0.00083748699 0.00014501814
-12.928353 0.39546061 -0.42116547 -0.2571944 0.007240084 0.0027716979
45.150925 2.5037351 -2.0425241 0.82882547 -0.78618217 -0.2528401
66000000 -0.19709997 -0.27383107 0.023863433 -0.018360831 0.00075888709 -0.00011954276
-12.965075 0.53873396 -0.42508343 -0.2557804 0.0076183509 0.0025280789
45.071507 2.177618 -2.0268049 0.84056133 -0.78253824 -0.24956936
67000000 -0.1994344 -0.26832581 0.022810858 -0.01842713 0.00068156066 -7.67241e-05
-12.921629 0.63141918 -0.4227111 -0.25399771 0.0083327973 0.0023351344
45.072701 1.9106646 -2.0272603 0.80468947 -0.78276205 -0.25330216
68000000 -0.20549023 -0.26682332 0.022811344 -0.017666865 0.0003231937 -0.00010317591
-12.936883 0.73898554 -0.42505586 -0.2480512 0.0083159171 0.0025140487
44.994217 1.6207438 -2.0005324 0.80355418 -0.78123367 -0.25693873
69000000 -0.21085635 -0.26474994 0.022961576 -0.017783556 0.00080702652 -0.00018125816
-12.94944 0.77018499 -0.42455572 -0.24383873 0.01083546 0.0034527585
44.699776 1.4159107 -1.9796993 0.79363078 -0.77803785 -0.26858243
70000000 -0.22069429 -0.26446939 0.023607291 -0.017663432 0.00091747649 -0.0004820482
-13.127917 0.67455959 -0.41846547 -0.23975855 0.015781935 0.0060166693
43.652176 2.6896429 -1.9747155 0.70721382 -0.77227104 -0.32339174
71000000 -0.21466933 -0.17871831 0.021403395 -0.021541094 -0.00055622496 -0.0025236551
-13.954069 1.7317953 -0.40406156 -0.30347309 0.02395756 -0.036894534
55.855087 5.74436 -2.6185331 0.82755995 -1.209517 -0.23078868
72000000 -0.18964839 -0.23588815 0.021598959 -0.017698281 -0.00033169513 -0.0005949256
-12.86889 1.4419045 -0.43811888 -0.25439942 0.003480257 -0.0088658575
48.690502 -2.2990704 -2.0859206 0.96296132 -0.86460841 -0.13773641
73000000 -0.19751272 -0.2400315 0.021472925 -0.017581446 -0.0001793082 -0.00054760661
-12.94128 1.457859 -0.43940046 -0.25039613 0.0057236352 -0.0059871939
47.401115 -2.4903221 -2.0309267 0.93055302 -0.83623302 -0.15879235
74000000 -0.19989249 -0.23890516 0.022066813 -0.017416805 1.1338785e-05 -4.7291549e-05
-12.94957 1.5058441 -0.43554378 -0.24708928 0.00664357 -0.0052554505
47.178776 -2.6343975 -2.0215416 0.91548449 -0.83091474 -0.16409302
75000000 -0.19874166 -0.23426816 0.021680187 -0.017220689 4.732424e-05 -0.00046414329
-13.038538 1.5302596 -0.43276948 -0.24945131 0.0076582655 -0.0060393047
47.070263 -2.8278904 -2.0335627 0.90645981 -0.82608628 -0.16256335
76000000 -0.19848222 -0.22824307 0.021464203 -0.017215382 -0.00029423021 -0.00045377389
-13.010616 1.7498708 -0.43715218 -0.24754468 0.0071438234 -0.0089350063
47.117401 -3.9962044 -2.0002568 0.94603002 -0.82455599 -0.14776725
77000000 -0.19087881 -0.22243537 0.021369992 -0.01652135 -0.00010479585 -0.00028515907
-12.928652 1.8946142 -0.43824112 -0.24840108 0.0050374861 -0.010905584
46.468533 -4.4381599 -1.979352 0.91651946 -0.80812478 -0.14390188
78000000 -0.18841796 -0.22768377 0.020898581 -0.016613705 -0.00060855667 -0.00025905843
-12.740451 2.0930634 -0.45082465 -0.24780405 0.0013872292 -0.0098365871
46.302773 -5.5918961 -1.9432017 0.95860827 -0.7875905 -0.14097518
79000000 -0.18538508 -0.22967279 0.02018971 -0.015561993 -0.0006088721 -0.00010971751
-12.648215 2.0598497 -0.4537257 -0.24187796 -0.001735911 -0.0076542343
45.61277 -5.2434425 -1.9285077 0.92459583 -0.77656388 -0.15088543
80000000 -0.18591273 -0.23531996 0.020766743 -0.015639503 -0.00048947119 0.00020455931
-12.642579 2.1224179 -0.4566856 -0.23771518 -0.0022241022 -0.0056205806
44.946587 -5.4209595 -1.902028 0.91463768 -0.77198422 -0.15978928
81000000 -0.18988141 -0.23525445 0.020972734 -0.015206199 -0.00022909172 0.00043354509
-12.549068 2.1339726 -0.45583856 -0.23276743 -0.0017158552 -0.0039520534
45.058056 -5.4847183 -1.8956095 0.89495313 -0.7738803 -0.16799352
82000000 -0.19098097 -0.23729053 0.02096322 -0.015229857 4.8723272e-05 0.00015935255
-12.576262 2.1191397 -0.45488924 -0.23192289 -0.0014890896 -0.0030004443
44.791317 -5.7380524 -1.8951006 0.88512588 -0.77522397 -0.17073001
83000000 -0.19652478 -0.2369922 0.020398913 -0.0155947 0.00015535665 0.00022852603
-12.524425 2.2462842 -0.45739883 -0.22695491 -0.00096063805 -0.001603903
44.907505 -5.8112402 -1.8840674 0.89185327 -0.77627677 -0.17015591
84000000 -0.1931783 -0.23278312 0.020990688 -0.014823336 -0.00064251386 0.00059400441
-12.555072 2.1718569 -0.45431542 -0.22473256 -0.00047028947 -0.00086571346
44.794464 -6.383729 -1.8894651 0.87336397 -0.7791248 -0.17539009
85000000 -0.19935441 -0.2336916 0.02085112 -0.015495019 -6.2119405e-05 7.1811701e-05
-12.516531 2.3241544 -0.45875502 -0.22261474 -0.00049678306 -0.00080411712
44.87191 -6.534235 -1.8870817 0.87581134 -0.78315562 -0.17520851
86000000 -0.19647291 -0.23501348 0.020716932 -0.014818244 -0.00014472612 0.00020912128
-12.58585 2.3320575 -0.45906371 -0.22372907 0.00017728556 -0.00049397507
44.425774 -6.7895327 -1.8869065 0.87735802 -0.78090948 -0.17049284
87000000 -0.19950356 -0.23299551 0.020646272 -0.01461943 -0.0002079453 -0.00040840797
-12.581309 2.4217277 -0.46070042 -0.2211391 -0.00012352134 -0.00077929429
44.678967 -7.0923252 -1.8829458 0.87671947 -0.78526235 -0.17179163
88000000 -0.20416602 -0.23009214 0.020694893 -0.014614187 -0.00016389787 -0.00039923991
-12.476455 2.5298603 -0.46042091 -0.21862823 0.00011154925 -0.00063465961
44.273685 -7.5509439 -1.8484955 0.86570102 -0.7807706 -0.16966888
89000000 -0.20352525 -0.22681895 0.020368373 -0.014440091 0.00026861409 -0.00021506914
-12.421608 2.5276644 -0.45904851 -0.21486388 0.0008572432 -0.0007506251
44.97142 -7.7815676 -1.8789755 0.87143135 -0.78827572 -0.17588313
90000000 -0.20488569 -0.22800578 0.020752614 -0.014578107 -6.1910541e-05 -4.61202e-05
-12.428503 2.6040239 -0.46126479 -0.21538676 0.0006318707 1.9077219e-05
44.29818 -7.7953968 -1.8680459 0.8655957 -0.78254902 -0.17379405
91000000 -0.20760407 -0.22555387 0.021146173 -0.014600077 0.00025051809 -0.0002968247
-12.420964 2.6896436 -0.46363309 -0.2144088 0.00095829566 4.7557172e-05
44.227032 -8.1505604 -1.8567172 0.85448134 -0.78431517 -0.17158578
92000000 -0.20694141 -0.22423826 0.020667307 -0.013978163 0.00011149757 -1.7307077e-05
-12.418079 2.7136703 -0.46228912 -0.21277174 0.00083914946 -0.00044930691
44.191792 -8.5306454 -1.8522747 0.85453284 -0.78546429 -0.1728583
93000000 -0.20616458 -0.22585107 0.020822562 -0.014330233 3.0864547e-05 3.9028426e-05
-12.469618 2.796804 -0.46344903 -0.2126835 0.00095542514 0.0011229998
44.083912 -8.9771118 -1.8445731 0.87029576 -0.78857052 -0.16706711
94000000 -0.20751391 -0.22575012 0.0202149 -0.013766986 -0.00034308282 0.00034413021
-12.403699 2.8644314 -0.46363768 -0.21023402 0.0013386421 0.0010749414
44.529369 -9.2308369 -1.8594825 0.87412077 -0.79216999 -0.17285028
95000000 -0.2092832 -0.22047421 0.02047481 -0.013744257 -0.00021399188 0.00026210872
-12.321305 2.8639634 -0.46390557 -0.20743696 0.0014638292 0.00049059314
44.009438 -9.520256 -1.8384955 0.85973608 -0.79106069 -0.16702032
96000000 -0.21075499 -0.22353369 0.020290224 -0.013636189 -1.2417004e-05 0.00023946245
-12.352146 3.0090547 -0.46507099 -0.20821902 0.0013618392 0.00094643753
44.08968 -9.7946997 -1.8466897 0.86626655 -0.79359639 -0.16838893
97000000 -0.21183141 -0.21987714 0.020682234 -0.013693573 2.0444466e-05 0.0002591121
